Freq.	V(out)
1.00000000000000e+002	(1.84437304202305e+001dB,7.95051783866759e+001°)
1.02329299228075e+002	(1.85760783936376e+001dB,7.89526221599112e+001°)
1.04712854805090e+002	(1.87068512779563e+001dB,7.84145403019004e+001°)
1.07151930523761e+002	(1.88361033621651e+001dB,7.78911529004699e+001°)
1.09647819614318e+002	(1.89638914345331e+001dB,7.73826718089706e+001°)
1.12201845430196e+002	(1.90902747376995e+001dB,7.68892993994748e+001°)
1.14815362149688e+002	(1.92153149095125e+001dB,7.64112273294994e+001°)
1.17489755493953e+002	(1.93390759092909e+001dB,7.59486353301467e+001°)
1.20226443461741e+002	(1.94616239295505e+001dB,7.55016900241855e+001°)
1.23026877081238e+002	(1.95830272936328e+001dB,7.50705437811683e+001°)
1.25892541179417e+002	(1.97033563402594e+001dB,7.46553336171378e+001°)
1.28824955169313e+002	(1.98226832948366e+001dB,7.42561801460071e+001°)
1.31825673855641e+002	(1.99410821287070e+001dB,7.38731865891974e+001°)
1.34896288259165e+002	(2.00586284065846e+001dB,7.35064378506893e+001°)
1.38038426460288e+002	(2.01753991231902e+001dB,7.31559996626759e+001°)
1.41253754462275e+002	(2.02914725305216e+001dB,7.28219178064275e+001°)
1.44543977074593e+002	(2.04069279559042e+001dB,7.25042174151091e+001°)
1.47910838816821e+002	(2.05218456114903e+001dB,7.22029023624117e+001°)
1.51356124843621e+002	(2.06363063978449e+001dB,7.19179547397115e+001°)
1.54881661891248e+002	(2.07503917010516e+001dB,7.16493344259907e+001°)
1.58489319246111e+002	(2.08641831850046e+001dB,7.13969787537843e+001°)
1.62181009735893e+002	(2.09777625808745e+001dB,7.11608022709706e+001°)
1.65958690743756e+002	(2.10912114728320e+001dB,7.09406966035090e+001°)
1.69824365246174e+002	(2.12046110834915e+001dB,7.07365304165543e+001°)
1.73780082874937e+002	(2.13180420591559e+001dB,7.05481494757582e+001°)
1.77827941003892e+002	(2.14315842553887e+001dB,7.03753768092047e+001°)
1.81970085860998e+002	(2.15453165256081e+001dB,7.02180129671010e+001°)
1.86208713666287e+002	(2.16593165125136e+001dB,7.00758363798826e+001°)
1.90546071796324e+002	(2.17736604440759e+001dB,6.99486038110302e+001°)
1.94984459975804e+002	(2.18884229352411e+001dB,6.98360509022607e+001°)
1.99526231496888e+002	(2.20036767959480e+001dB,6.97378928086491e+001°)
2.04173794466953e+002	(2.21194928472237e+001dB,6.96538249185033e+001°)
2.08929613085404e+002	(2.22359397453743e+001dB,6.95835236547951e+001°)
2.13796208950223e+002	(2.23530838159779e+001dB,6.95266473531115e+001°)
2.18776162394955e+002	(2.24709888981540e+001dB,6.94828372098016e+001°)
2.23872113856834e+002	(2.25897161997903e+001dB,6.94517182959155e+001°)
2.29086765276777e+002	(2.27093241650999e+001dB,6.94329006296420e+001°)
2.34422881531992e+002	(2.28298683537010e+001dB,6.94259803014039e+001°)
2.39883291901949e+002	(2.29514013336563e+001dB,6.94305406443018e+001°)
2.45470891568503e+002	(2.30739725871744e+001dB,6.94461534424091e+001°)
2.51188643150958e+002	(2.31976284302460e+001dB,6.94723801710783e+001°)
2.57039578276886e+002	(2.33224119464513e+001dB,6.95087732592008e+001°)
2.63026799189538e+002	(2.34483629345951e+001dB,6.95548773687861e+001°)
2.69153480392691e+002	(2.35755178703257e+001dB,6.96102306815039e+001°)
2.75422870333816e+002	(2.37039098822774e+001dB,6.96743661866657e+001°)
2.81838293126445e+002	(2.38335687416875e+001dB,6.97468129619091e+001°)
2.88403150312660e+002	(2.39645208655374e+001dB,6.98270974403959e+001°)
2.95120922666638e+002	(2.40967893331472e+001dB,6.99147446564811e+001°)
3.01995172040201e+002	(2.42303939155800e+001dB,7.00092794639410e+001°)
3.09029543251358e+002	(2.43653511164553e+001dB,7.01102277205550e+001°)
3.16227766016837e+002	(2.45016742254756e+001dB,7.02171174321630e+001°)
3.23593656929628e+002	(2.46393733820494e+001dB,7.03294798520706e+001°)
3.31131121482590e+002	(2.47784556489289e+001dB,7.04468505306321e+001°)
3.38844156139202e+002	(2.49189250953629e+001dB,7.05687703101634e+001°)
3.46736850452531e+002	(2.50607828887359e+001dB,7.06947862619552e+001°)
3.54813389233575e+002	(2.52040273935953e+001dB,7.08244525620140e+001°)
3.63078054770101e+002	(2.53486542769046e+001dB,7.09573313043366e+001°)
3.71535229097172e+002	(2.54946566196475e+001dB,7.10929932468545e+001°)
3.80189396320560e+002	(2.56420250324380e+001dB,7.12310184926457e+001°)
3.89045144994280e+002	(2.57907477755828e+001dB,7.13709971024196e+001°)
3.98107170553496e+002	(2.59408108814971e+001dB,7.15125296401063e+001°)
4.07380277804112e+002	(2.60921982793569e+001dB,7.16552276515313e+001°)
4.16869383470335e+002	(2.62448919208723e+001dB,7.17987140764673e+001°)
4.26579518801592e+002	(2.63988719065009e+001dB,7.19426235968420e+001°)
4.36515832240165e+002	(2.65541166111234e+001dB,7.20866029209685e+001°)
4.46683592150962e+002	(2.67106028080791e+001dB,7.22303110089644e+001°)
4.57088189614874e+002	(2.68683057926791e+001dB,7.23734192381404e+001°)
4.67735141287197e+002	(2.70271995014337e+001dB,7.25156115153089e+001°)
4.78630092322637e+002	(2.71872566302624e+001dB,7.26565843354923e+001°)
4.89778819368445e+002	(2.73484487474256e+001dB,7.27960467932911e+001°)
5.01187233627271e+002	(2.75107464039338e+001dB,7.29337205481941e+001°)
5.12861383991364e+002	(2.76741192387402e+001dB,7.30693397490981e+001°)
5.24807460249771e+002	(2.78385360796301e+001dB,7.32026509207229e+001°)
5.37031796370251e+002	(2.80039650394890e+001dB,7.33334128157364e+001°)
5.49540873857623e+002	(2.81703736072735e+001dB,7.34613962366401e+001°)
5.62341325190348e+002	(2.83377287336162e+001dB,7.35863838312995e+001°)
5.75439937337155e+002	(2.85059969112013e+001dB,7.37081698648973e+001°)
5.88843655355587e+002	(2.86751442503520e+001dB,7.38265599722406e+001°)
6.02559586074356e+002	(2.88451365484142e+001dB,7.39413708944678e+001°)
6.16595001861481e+002	(2.90159393540765e+001dB,7.40524302025635e+001°)
6.30957344480192e+002	(2.91875180270097e+001dB,7.41595760110069e+001°)
6.45654229034654e+002	(2.93598377912611e+001dB,7.42626566852560e+001°)
6.60693448007594e+002	(2.95328637847534e+001dB,7.43615305447060e+001°)
6.76082975391980e+002	(2.97065611033391e+001dB,7.44560655647420e+001°)
6.91830970918935e+002	(2.98808948400876e+001dB,7.45461390801282e+001°)
7.07945784384136e+002	(3.00558301205098e+001dB,7.46316374917911e+001°)
7.24435960074988e+002	(3.02313321330266e+001dB,7.47124559794697e+001°)
7.41310241300916e+002	(3.04073661563051e+001dB,7.47884982214202e+001°)
7.58577575029182e+002	(3.05838975817662e+001dB,7.48596761243956e+001°)
7.76247116628690e+002	(3.07608919333202e+001dB,7.49259095639162e+001°)
7.94328234724279e+002	(3.09383148838485e+001dB,7.49871261371389e+001°)
8.12830516164097e+002	(3.11161322682312e+001dB,7.50432609296962e+001°)
8.31763771102669e+002	(3.12943100945180e+001dB,7.50942562967917e+001°)
8.51138038202374e+002	(3.14728145521609e+001dB,7.51400616604442e+001°)
8.70963589956078e+002	(3.16516120179726e+001dB,7.51806333234373e+001°)
8.91250938133743e+002	(3.18306690609288e+001dB,7.52159343000779e+001°)
9.12010839355907e+002	(3.20099524452029e+001dB,7.52459341648682e+001°)
9.33254300796988e+002	(3.21894291317550e+001dB,7.52706089195702e+001°)
9.54992586021433e+002	(3.23690662792626e+001dB,7.52899408784740e+001°)
9.77237220955808e+002	(3.25488312442235e+001dB,7.53039185724903e+001°)
9.99999999999997e+002	(3.27286915811156e+001dB,7.53125366714437e+001°)
1.02329299228075e+003	(3.29086150418008e+001dB,7.53157959255534e+001°)
1.04712854805090e+003	(3.30885695759024e+001dB,7.53137031245290e+001°)
1.07151930523760e+003	(3.32685233312360e+001dB,7.53062710750776e+001°)
1.09647819614318e+003	(3.34484446549843e+001dB,7.52935185958801e+001°)
1.12201845430196e+003	(3.36283020962598e+001dB,7.52754705293499e+001°)
1.14815362149688e+003	(3.38080644097960e+001dB,7.52521577697136e+001°)
1.17489755493953e+003	(3.39877005610363e+001dB,7.52236173066248e+001°)
1.20226443461741e+003	(3.41671797335043e+001dB,7.51898922830388e+001°)
1.23026877081238e+003	(3.43464713380636e+001dB,7.51510320664528e+001°)
1.25892541179416e+003	(3.45255450244461e+001dB,7.51070923325756e+001°)
1.28824955169313e+003	(3.47043706953285e+001dB,7.50581351596997e+001°)
1.31825673855640e+003	(3.48829185237156e+001dB,7.50042291319154e+001°)
1.34896288259165e+003	(3.50611589725586e+001dB,7.49454494508697e+001°)
1.38038426460288e+003	(3.52390628185015e+001dB,7.48818780523244e+001°)
1.41253754462275e+003	(3.54166011784581e+001dB,7.48136037275500e+001°)
1.44543977074592e+003	(3.55937455398184e+001dB,7.47407222460335e+001°)
1.47910838816820e+003	(3.57704677949083e+001dB,7.46633364778212e+001°)
1.51356124843620e+003	(3.59467402787937e+001dB,7.45815565130555e+001°)
1.54881661891248e+003	(3.61225358112093e+001dB,7.44954997764421e+001°)
1.58489319246111e+003	(3.62978277427790e+001dB,7.44052911332943e+001°)
1.62181009735892e+003	(3.64725900054689e+001dB,7.43110629844741e+001°)
1.65958690743755e+003	(3.66467971663979e+001dB,7.42129553486654e+001°)
1.69824365246174e+003	(3.68204244868072e+001dB,7.41111159262481e+001°)
1.73780082874937e+003	(3.69934479842696e+001dB,7.40057001445973e+001°)
1.77827941003892e+003	(3.71658444992682e+001dB,7.38968711792812e+001°)
1.81970085860998e+003	(3.73375917652367e+001dB,7.37847999493044e+001°)
1.86208713666286e+003	(3.75086684826905e+001dB,7.36696650820432e+001°)
1.90546071796324e+003	(3.76790543959127e+001dB,7.35516528459498e+001°)
1.94984459975804e+003	(3.78487303735208e+001dB,7.34309570459722e+001°)
1.99526231496887e+003	(3.80176784907118e+001dB,7.33077788807459e+001°)
2.04173794466952e+003	(3.81858821144857e+001dB,7.31823267559215e+001°)
2.08929613085403e+003	(3.83533259902978e+001dB,7.30548160532042e+001°)
2.13796208950222e+003	(3.85199963298257e+001dB,7.29254688503785e+001°)
2.18776162394954e+003	(3.86858808992301e+001dB,7.27945135916926e+001°)
2.23872113856833e+003	(3.88509691074743e+001dB,7.26621847050650e+001°)
2.29086765276776e+003	(3.90152520938848e+001dB,7.25287221644161e+001°)
2.34422881531991e+003	(3.91787228138841e+001dB,7.23943709974416e+001°)
2.39883291901948e+003	(3.93413761225759e+001dB,7.22593807351780e+001°)
2.45470891568502e+003	(3.95032088550921e+001dB,7.21240048051241e+001°)
2.51188643150957e+003	(3.96642199025523e+001dB,7.19884998678166e+001°)
2.57039578276885e+003	(3.98244102833146e+001dB,7.18531250959758e+001°)
2.63026799189537e+003	(3.99837832083521e+001dB,7.17181413993967e+001°)
2.69153480392690e+003	(4.01423441393119e+001dB,7.15838105968830e+001°)
2.75422870333815e+003	(4.03001008394610e+001dB,7.14503945374853e+001°)
2.81838293126444e+003	(4.04570634155370e+001dB,7.13181541749682e+001°)
2.88403150312659e+003	(4.06132443500596e+001dB,7.11873485996114e+001°)
2.95120922666637e+003	(4.07686585236592e+001dB,7.10582340313338e+001°)
3.01995172040200e+003	(4.09233232261309e+001dB,7.09310627805573e+001°)
3.09029543251358e+003	(4.10772581553147e+001dB,7.08060821821658e+001°)
3.16227766016836e+003	(4.12304854043383e+001dB,7.06835335090159e+001°)
3.23593656929627e+003	(4.13830294353776e+001dB,7.05636508733032e+001°)
3.31131121482590e+003	(4.15349170401639e+001dB,7.04466601219378e+001°)
3.38844156139201e+003	(4.16861772870463e+001dB,7.03327777354766e+001°)
3.46736850452530e+003	(4.18368414542147e+001dB,7.02222097376986e+001°)
3.54813389233574e+003	(4.19869429491090e+001dB,7.01151506255091e+001°)
3.63078054770100e+003	(4.21365172138443e+001dB,7.00117823278173e+001°)
3.71535229097171e+003	(4.22856016178046e+001dB,6.99122732005361e+001°)
3.80189396320559e+003	(4.24342353365958e+001dB,6.98167770692136e+001°)
3.89045144994279e+003	(4.25824592187176e+001dB,6.97254323260699e+001°)
3.98107170553495e+003	(4.27303156403952e+001dB,6.96383610888842e+001°)
4.07380277804111e+003	(4.28778483492604e+001dB,6.95556684318317e+001°)
4.16869383470333e+003	(4.30251022982307e+001dB,6.94774416927743e+001°)
4.26579518801591e+003	(4.31721234701310e+001dB,6.94037498659162e+001°)
4.36515832240164e+003	(4.33189586945332e+001dB,6.93346430843339e+001°)
4.46683592150961e+003	(4.34656554581673e+001dB,6.92701521972711e+001°)
4.57088189614873e+003	(4.36122617099531e+001dB,6.92102884472069e+001°)
4.67735141287196e+003	(4.37588256625809e+001dB,6.91550432489552e+001°)
4.78630092322636e+003	(4.39053955912260e+001dB,6.91043880732362e+001°)
4.89778819368444e+003	(4.40520196322164e+001dB,6.90582744357891e+001°)
5.01187233627270e+003	(4.41987455815328e+001dB,6.90166339922691e+001°)
5.12861383991362e+003	(4.43456206962169e+001dB,6.89793787374144e+001°)
5.24807460249770e+003	(4.44926914990938e+001dB,6.89464013064325e+001°)
5.37031796370250e+003	(4.46400035883831e+001dB,6.89175753760437e+001°)
5.49540873857622e+003	(4.47876014542450e+001dB,6.88927561606170e+001°)
5.62341325190346e+003	(4.49355283025906e+001dB,6.88717809984482e+001°)
5.75439937337154e+003	(4.50838258877825e+001dB,6.88544700222036e+001°)
5.88843655355586e+003	(4.52325343557356e+001dB,6.88406269082055e+001°)
6.02559586074354e+003	(4.53816920971543e+001dB,6.88300396954331e+001°)
6.16595001861479e+003	(4.55313356131815e+001dB,6.88224816679423e+001°)
6.30957344480190e+003	(4.56814993930410e+001dB,6.88177122921344e+001°)
6.45654229034652e+003	(4.58322158046460e+001dB,6.88154782009274e+001°)
6.60693448007592e+003	(4.59835149986407e+001dB,6.88155142142531e+001°)
6.76082975391978e+003	(4.61354248258344e+001dB,6.88175443902070e+001°)
6.91830970918932e+003	(4.62879707686847e+001dB,6.88212830948278e+001°)
7.07945784384134e+003	(4.64411758856755e+001dB,6.88264360850066e+001°)
7.24435960074986e+003	(4.65950607700807e+001dB,6.88327015935032e+001°)
7.41310241300913e+003	(4.67496435211358e+001dB,6.88397714097461e+001°)
7.58577575029179e+003	(4.69049397284690e+001dB,6.88473319483168e+001°)
7.76247116628687e+003	(4.70609624684109e+001dB,6.88550652971200e+001°)
7.94328234724277e+003	(4.72177223122349e+001dB,6.88626502407179e+001°)
8.12830516164094e+003	(4.73752273452622e+001dB,6.88697632504144e+001°)
8.31763771102666e+003	(4.75334831960542e+001dB,6.88760794369312e+001°)
8.51138038202371e+003	(4.76924930749154e+001dB,6.88812734623400e+001°)
8.70963589956075e+003	(4.78522578212465e+001dB,6.88850204035239e+001°)
8.91250938133740e+003	(4.80127759580171e+001dB,6.88869965686199e+001°)
9.12010839355904e+003	(4.81740437533131e+001dB,6.88868802598655e+001°)
9.33254300796985e+003	(4.83360552875094e+001dB,6.88843524824072e+001°)
9.54992586021430e+003	(4.84988025252430e+001dB,6.88790975998951e+001°)
9.77237220955804e+003	(4.86622753914388e+001dB,6.88708039316500e+001°)
9.99999999999993e+003	(4.88264618503747e+001dB,6.88591642955381e+001°)
1.02329299228075e+004	(4.89913479871961e+001dB,6.88438764948579e+001°)
1.04712854805089e+004	(4.91569180903884e+001dB,6.88246437514310e+001°)
1.07151930523760e+004	(4.93231547354661e+001dB,6.88011750851050e+001°)
1.09647819614318e+004	(4.94900388683779e+001dB,6.87731856424062e+001°)
1.12201845430196e+004	(4.96575498882306e+001dB,6.87403969768327e+001°)
1.14815362149688e+004	(4.98256657288814e+001dB,6.87025372820010e+001°)
1.17489755493952e+004	(4.99943629385520e+001dB,6.86593415825548e+001°)
1.20226443461740e+004	(5.01636167573795e+001dB,6.86105518830637e+001°)
1.23026877081237e+004	(5.03334011920188e+001dB,6.85559172810537e+001°)
1.25892541179416e+004	(5.05036890874450e+001dB,6.84951940450098e+001°)
1.28824955169313e+004	(5.06744521953369e+001dB,6.84281456616946e+001°)
1.31825673855640e+004	(5.08456612387779e+001dB,6.83545428570744e+001°)
1.34896288259164e+004	(5.10172859733041e+001dB,6.82741635920591e+001°)
1.38038426460288e+004	(5.11892952438859e+001dB,6.81867930388507e+001°)
1.41253754462274e+004	(5.13616570382796e+001dB,6.80922235388262e+001°)
1.44543977074592e+004	(5.15343385358236e+001dB,6.79902545472278e+001°)
1.47910838816820e+004	(5.17073061527123e+001dB,6.78806925672026e+001°)
1.51356124843620e+004	(5.18805255830117e+001dB,6.77633510744325e+001°)
1.54881661891247e+004	(5.20539618357468e+001dB,6.76380504388873e+001°)
1.58489319246110e+004	(5.22275792684350e+001dB,6.75046178423573e+001°)
1.62181009735892e+004	(5.24013416167802e+001dB,6.73628871973544e+001°)
1.65958690743755e+004	(5.25752120208282e+001dB,6.72126990684242e+001°)
1.69824365246173e+004	(5.27491530482436e+001dB,6.70539005986007e+001°)
1.73780082874936e+004	(5.29231267141439e+001dB,6.68863454422482e+001°)
1.77827941003891e+004	(5.30970944981148e+001dB,6.67098937080237e+001°)
1.81970085860997e+004	(5.32710173589315e+001dB,6.65244119115780e+001°)
1.86208713666285e+004	(5.34448557469991e+001dB,6.63297729402792e+001°)
1.90546071796323e+004	(5.36185696143651e+001dB,6.61258560328423e+001°)
1.94984459975803e+004	(5.37921184235368e+001dB,6.59125467727206e+001°)
1.99526231496887e+004	(5.39654611546211e+001dB,6.56897370974376e+001°)
2.04173794466951e+004	(5.41385563114479e+001dB,6.54573253252968e+001°)
2.08929613085402e+004	(5.43113619269642e+001dB,6.52152161983547e+001°)
2.13796208950222e+004	(5.44838355680721e+001dB,6.49633209449086e+001°)
2.18776162394954e+004	(5.46559343406281e+001dB,6.47015573584586e+001°)
2.23872113856832e+004	(5.48276148943698e+001dB,6.44298498961917e+001°)
2.29086765276776e+004	(5.49988334285086e+001dB,6.41481297957460e+001°)
2.34422881531990e+004	(5.51695456984252e+001dB,6.38563352093953e+001°)
2.39883291901947e+004	(5.53397070232241e+001dB,6.35544113571248e+001°)
2.45470891568501e+004	(5.55092722953612e+001dB,6.32423106951504e+001°)
2.51188643150956e+004	(5.56781959914884e+001dB,6.29199931035671e+001°)
2.57039578276884e+004	(5.58464321862231e+001dB,6.25874260865724e+001°)
2.63026799189536e+004	(5.60139345680326e+001dB,6.22445849887648e+001°)
2.69153480392689e+004	(5.61806564579873e+001dB,6.18914532245769e+001°)
2.75422870333814e+004	(5.63465508316721e+001dB,6.15280225185855e+001°)
2.81838293126443e+004	(5.65115703447645e+001dB,6.11542931554696e+001°)
2.88403150312658e+004	(5.66756673618136e+001dB,6.07702742391306e+001°)
2.95120922666636e+004	(5.68387939891633e+001dB,6.03759839568479e+001°)
3.01995172040199e+004	(5.70009021121809e+001dB,5.99714498468733e+001°)
3.09029543251357e+004	(5.71619434365053e+001dB,5.95567090676691e+001°)
3.16227766016835e+004	(5.73218695339058e+001dB,5.91318086659665e+001°)
3.23593656929626e+004	(5.74806318927473e+001dB,5.86968058404677e+001°)
3.31131121482588e+004	(5.76381819733820e+001dB,5.82517681976155e+001°)
3.38844156139200e+004	(5.77944712679694e+001dB,5.77967739986785e+001°)
3.46736850452529e+004	(5.79494513653653e+001dB,5.73319123926889e+001°)
3.54813389233573e+004	(5.81030740208409e+001dB,5.68572836325820e+001°)
3.63078054770098e+004	(5.82552912302740e+001dB,5.63729992723623e+001°)
3.71535229097169e+004	(5.84060553093322e+001dB,5.58791823395881e+001°)
3.80189396320558e+004	(5.85553189766545e+001dB,5.53759674828854e+001°)
3.89045144994277e+004	(5.87030354417475e+001dB,5.48635010875207e+001°)
3.98107170553494e+004	(5.88491584965361e+001dB,5.43419413585454e+001°)
4.07380277804109e+004	(5.89936426103601e+001dB,5.38114583682279e+001°)
4.16869383470332e+004	(5.91364430287967e+001dB,5.32722340612253e+001°)
4.26579518801589e+004	(5.92775158748440e+001dB,5.27244622189050e+001°)
4.36515832240162e+004	(5.94168182524142e+001dB,5.21683483780450e+001°)
4.46683592150959e+004	(5.95543083517308e+001dB,5.16041097012674e+001°)
4.57088189614871e+004	(5.96899455559065e+001dB,5.10319747970795e+001°)
4.67735141287194e+004	(5.98236905480445e+001dB,5.04521834885389e+001°)
4.78630092322634e+004	(5.99555054180075e+001dB,4.98649865289087e+001°)
4.89778819368442e+004	(6.00853537685833e+001dB,4.92706452622202e+001°)
5.01187233627268e+004	(6.02132008199353e+001dB,4.86694312292431e+001°)
5.12861383991360e+004	(6.03390135116938e+001dB,4.80616257190132e+001°)
5.24807460249768e+004	(6.04627606019391e+001dB,4.74475192651060e+001°)
5.37031796370248e+004	(6.05844127621827e+001dB,4.68274110893598e+001°)
5.49540873857620e+004	(6.07039426678724e+001dB,4.62016084927068e+001°)
5.62341325190344e+004	(6.08213250832295e+001dB,4.55704261967718e+001°)
5.75439937337152e+004	(6.09365369400980e+001dB,4.49341856376733e+001°)
5.88843655355584e+004	(6.10495574098027e+001dB,4.42932142159428e+001°)
6.02559586074352e+004	(6.11603679675894e+001dB,4.36478445056916e+001°)
6.16595001861477e+004	(6.12689524489049e+001dB,4.29984134268010e+001°)
6.30957344480187e+004	(6.13752970968541e+001dB,4.23452613867417e+001°)
