
**** 04/11/22 19:45:36 ************** PSpice Lite (Mar 2000) *****************

 ** Profile: "SCHEMATIC1-sim"  [ D:\NUST\SEMESTER 4\ELECTRONIC DEVICES AND CIRCUITS\LABS\Lab 6\lab6-schematic1-sim.sim ] 


 ****     CIRCUIT DESCRIPTION


******************************************************************************




** Creating circuit file "lab6-schematic1-sim.sim.cir" 
** WARNING: THIS AUTOMATICALLY GENERATED FILE MAY BE OVERWRITTEN BY SUBSEQUENT SIMULATIONS

*Libraries: 
* Local Libraries :
* From [PSPICE NETLIST] section of C:\Program Files\OrcadLite\PSpice\PSpice.ini file:
.lib "nom.lib" 

*Analysis directives: 
.PROBE V(*) I(*) W(*) D(*) NOISE(*) 
.INC ".\lab6-SCHEMATIC1.net" 



**** INCLUDING lab6-SCHEMATIC1.net ****
* source LAB6
Q_Q1         N00286 N00257 0 Q2N3904
R_R2         N00227 N00257  2.2  
R_R1         N00286 N00315  220  
V_V1         N00227 0 0V
R_R3         N02732 N02762  10k  
V_V2         N00315 0 0V
R_R4         N02732 N02625  10k  
R_R5         N02762 N02625  10k  
R_R6         0 N02762  10k  
V_V3         N02625 0 5

**** RESUMING lab6-schematic1-sim.sim.cir ****
.END

**** 04/11/22 19:45:36 ************** PSpice Lite (Mar 2000) *****************

 ** Profile: "SCHEMATIC1-sim"  [ D:\NUST\SEMESTER 4\ELECTRONIC DEVICES AND CIRCUITS\LABS\Lab 6\lab6-schematic1-sim.sim ] 


 ****     BJT MODEL PARAMETERS


******************************************************************************




               Q2N3904         
               NPN             
          IS    6.734000E-15 
          BF  416.4          
          NF    1            
         VAF   74.03         
         IKF     .06678      
         ISE    6.734000E-15 
          NE    1.259        
          BR     .7371       
          NR    1            
          RB   10            
          RC    1            
         CJE    4.493000E-12 
         MJE     .2593       
         CJC    3.638000E-12 
         MJC     .3085       
          TF  301.200000E-12 
         XTF    2            
         VTF    4            
         ITF     .4          
          TR  239.500000E-09 
         XTB    1.5          
          CN    2.42         
           D     .87         


**** 04/11/22 19:45:36 ************** PSpice Lite (Mar 2000) *****************

 ** Profile: "SCHEMATIC1-sim"  [ D:\NUST\SEMESTER 4\ELECTRONIC DEVICES AND CIRCUITS\LABS\Lab 6\lab6-schematic1-sim.sim ] 


 ****     SMALL SIGNAL BIAS SOLUTION       TEMPERATURE =   27.000 DEG C


******************************************************************************



 NODE   VOLTAGE     NODE   VOLTAGE     NODE   VOLTAGE     NODE   VOLTAGE


(N00227)    0.0000 (N00257) 3.315E-27 (N00286)-575.2E-27 (N00315)    0.0000     

(N02625)    5.0000 (N02732)    4.0000 (N02762)    3.0000 




    VOLTAGE SOURCE CURRENTS
    NAME         CURRENT

    V_V1         1.507E-27
    V_V2        -2.615E-27
    V_V3        -3.000E-04

    TOTAL POWER DISSIPATION   1.50E-03  WATTS



          JOB CONCLUDED

          TOTAL JOB TIME            0.00
