
**** 05/29/22 14:31:08 ************** PSpice Lite (Mar 2000) *****************

 ** Profile: "SCHEMATIC1-A"  [ D:\NUST\SEMESTER 4\ELECTRONIC DEVICES AND CIRCUITS\LABS\Lab 10\lab10-SCHEMATIC1-A.sim ] 


 ****     CIRCUIT DESCRIPTION


******************************************************************************




** Creating circuit file "lab10-SCHEMATIC1-A.sim.cir" 
** WARNING: THIS AUTOMATICALLY GENERATED FILE MAY BE OVERWRITTEN BY SUBSEQUENT SIMULATIONS

*Libraries: 
* Local Libraries :
* From [PSPICE NETLIST] section of C:\Program Files\OrcadLite\PSpice\PSpice.ini file:
.lib "nom.lib" 

*Analysis directives: 
.TRAN  0 10m 0 0.00001 
.PROBE V(*) I(*) W(*) D(*) NOISE(*) 
.INC ".\lab10-SCHEMATIC1.net" 



**** INCLUDING lab10-SCHEMATIC1.net ****
* source LAB10
Q_Q1         N00468 N00378 N00525 Q2N3904
V_V1         N00207 0  
+SIN 0 20m 1k 0 0 0
R_R4         0 N00525  1k  
C_C1         N00207 N00378  15u  
R_R1         N00378 N00468  33k  
R_R2         0 N00378  10k  
R_R3         0 N00723  1k  
C_C2         N00525 N00723  100u  
V_V2         N00468 0 10V

**** RESUMING lab10-SCHEMATIC1-A.sim.cir ****
.END

**** 05/29/22 14:31:08 ************** PSpice Lite (Mar 2000) *****************

 ** Profile: "SCHEMATIC1-A"  [ D:\NUST\SEMESTER 4\ELECTRONIC DEVICES AND CIRCUITS\LABS\Lab 10\lab10-SCHEMATIC1-A.sim ] 


 ****     BJT MODEL PARAMETERS


******************************************************************************




               Q2N3904         
               NPN             
          IS    6.734000E-15 
          BF  416.4          
          NF    1            
         VAF   74.03         
         IKF     .06678      
         ISE    6.734000E-15 
          NE    1.259        
          BR     .7371       
          NR    1            
          RB   10            
          RC    1            
         CJE    4.493000E-12 
         MJE     .2593       
         CJC    3.638000E-12 
         MJC     .3085       
          TF  301.200000E-12 
         XTF    2            
         VTF    4            
         ITF     .4          
          TR  239.500000E-09 
         XTB    1.5          
          CN    2.42         
           D     .87         


**** 05/29/22 14:31:08 ************** PSpice Lite (Mar 2000) *****************

 ** Profile: "SCHEMATIC1-A"  [ D:\NUST\SEMESTER 4\ELECTRONIC DEVICES AND CIRCUITS\LABS\Lab 10\lab10-SCHEMATIC1-A.sim ] 


 ****     INITIAL TRANSIENT SOLUTION       TEMPERATURE =   27.000 DEG C


******************************************************************************



 NODE   VOLTAGE     NODE   VOLTAGE     NODE   VOLTAGE     NODE   VOLTAGE


(N00207)    0.0000 (N00378)    2.2473 (N00468)   10.0000 (N00525)    1.5723     

(N00723)    0.0000 




    VOLTAGE SOURCE CURRENTS
    NAME         CURRENT

    V_V1         0.000E+00
    V_V2        -1.797E-03

    TOTAL POWER DISSIPATION   1.80E-02  WATTS



          JOB CONCLUDED

          TOTAL JOB TIME             .03
