
**** 02/03/22 22:28:07 ************** PSpice Lite (Mar 2000) *****************

 ** Profile: "SCHEMATIC1-1"  [ D:\NUST\Semester 4\Electronic Devices and Circuits\Labs\Lab 1\lab1-SCHEMATIC1-1.sim ] 


 ****     CIRCUIT DESCRIPTION


******************************************************************************




** Creating circuit file "lab1-SCHEMATIC1-1.sim.cir" 
** WARNING: THIS AUTOMATICALLY GENERATED FILE MAY BE OVERWRITTEN BY SUBSEQUENT SIMULATIONS

*Libraries: 
* Local Libraries :
* From [PSPICE NETLIST] section of C:\Program Files\OrcadLite\PSpice\PSpice.ini file:
.lib "nom.lib" 

*Analysis directives: 
.PROBE V(*) I(*) W(*) D(*) NOISE(*) 
.INC ".\lab1-SCHEMATIC1.net" 



**** INCLUDING lab1-SCHEMATIC1.net ****
* source LAB1
V_V1         N00223 0 5V
R_R1         N00223 N00253  1k  
R_R2         N00253 N00344  3MEG  
R_R3         0 N00344  100k  
C_C1         0 N00253  1uF  
I_I1         0 N00253 DC 1mA  

**** RESUMING lab1-SCHEMATIC1-1.sim.cir ****
.END

**** 02/03/22 22:28:07 ************** PSpice Lite (Mar 2000) *****************

 ** Profile: "SCHEMATIC1-1"  [ D:\NUST\Semester 4\Electronic Devices and Circuits\Labs\Lab 1\lab1-SCHEMATIC1-1.sim ] 


 ****     SMALL SIGNAL BIAS SOLUTION       TEMPERATURE =   27.000 DEG C


******************************************************************************



 NODE   VOLTAGE     NODE   VOLTAGE     NODE   VOLTAGE     NODE   VOLTAGE


(N00223)    5.0000 (N00253)    5.9981 (N00344)     .1935 




    VOLTAGE SOURCE CURRENTS
    NAME         CURRENT

    V_V1         9.981E-04

    TOTAL POWER DISSIPATION  -4.99E-03  WATTS



          JOB CONCLUDED

          TOTAL JOB TIME             .02
