
**** 03/02/22 19:59:12 ************** PSpice Lite (Mar 2000) *****************

 ** Profile: "SCHEMATIC1-sa"  [ D:\NUST\SEMESTER 4\ELECTRONIC DEVICES AND CIRCUITS\LABS\Lab 4\lab4-SCHEMATIC1-sa.sim ] 


 ****     CIRCUIT DESCRIPTION


******************************************************************************




** Creating circuit file "lab4-SCHEMATIC1-sa.sim.cir" 
** WARNING: THIS AUTOMATICALLY GENERATED FILE MAY BE OVERWRITTEN BY SUBSEQUENT SIMULATIONS

*Libraries: 
* Local Libraries :
* From [PSPICE NETLIST] section of C:\Program Files\OrcadLite\PSpice\PSpice.ini file:
.lib "nom.lib" 

*Analysis directives: 
.TRAN  0 50ms 0 2u 
.PROBE V(*) I(*) W(*) D(*) NOISE(*) 
.INC ".\lab4-SCHEMATIC1.net" 



**** INCLUDING lab4-SCHEMATIC1.net ****
* source LAB4
D_D5         N01801 N01835 D1N4002 
D_D6         N01835 N01862 D1N4002 
D_D7         N01801 N01896 D1N4002 
V_V1         N00956 0  
+SIN 0 10 60 0 0 0
D_D8         N01896 N01862 D1N4002 
R_R5         N01801 N01862  1k  
R_R2         N00956 N02405  1k  
R_R3         0 N01896  1k  
X_TX1    N02405 0 N02435 N01896 SCHEMATIC1_TX1 
R_R4         N02435 N01835  1k  

.subckt SCHEMATIC1_TX1 1 2 3 4  
K_TX1         L1_TX1 L2_TX1 1
L1_TX1         1 2 10uH
L2_TX1         3 4 10uH
.ends SCHEMATIC1_TX1

**** RESUMING lab4-SCHEMATIC1-sa.sim.cir ****
.END

**** 03/02/22 19:59:12 ************** PSpice Lite (Mar 2000) *****************

 ** Profile: "SCHEMATIC1-sa"  [ D:\NUST\SEMESTER 4\ELECTRONIC DEVICES AND CIRCUITS\LABS\Lab 4\lab4-SCHEMATIC1-sa.sim ] 


 ****     Diode MODEL PARAMETERS


******************************************************************************




               D1N4002         
          IS   14.110000E-09 
           N    1.984        
         ISR  100.000000E-12 
         IKF   94.81         
          BV  100.1          
         IBV   10            
          RS     .03389      
          TT    4.761000E-06 
         CJO   51.170000E-12 
          VJ     .3905       
           M     .2762       


**** 03/02/22 19:59:12 ************** PSpice Lite (Mar 2000) *****************

 ** Profile: "SCHEMATIC1-sa"  [ D:\NUST\SEMESTER 4\ELECTRONIC DEVICES AND CIRCUITS\LABS\Lab 4\lab4-SCHEMATIC1-sa.sim ] 


 ****     INITIAL TRANSIENT SOLUTION       TEMPERATURE =   27.000 DEG C


******************************************************************************



 NODE   VOLTAGE     NODE   VOLTAGE     NODE   VOLTAGE     NODE   VOLTAGE


(N00956)    0.0000 (N01801) 1.445E-18 (N01835)-46.14E-24 (N01862) 1.383E-18     

(N01896)    0.0000 (N02405)    0.0000 (N02435)    0.0000 




    VOLTAGE SOURCE CURRENTS
    NAME         CURRENT

    V_V1         0.000E+00

    TOTAL POWER DISSIPATION   0.00E+00  WATTS



          JOB CONCLUDED

          TOTAL JOB TIME            1.03
