
**** 04/16/22 22:06:40 ************** PSpice Lite (Mar 2000) *****************

 ** Profile: "SCHEMATIC1-m"  [ D:\NUST\Semester 4\Electronic Devices and Circuits\Labs\Lab 3\main-schematic1-m.sim ] 


 ****     CIRCUIT DESCRIPTION


******************************************************************************




** Creating circuit file "main-schematic1-m.sim.cir" 
** WARNING: THIS AUTOMATICALLY GENERATED FILE MAY BE OVERWRITTEN BY SUBSEQUENT SIMULATIONS

*Libraries: 
* Local Libraries :
* From [PSPICE NETLIST] section of C:\Program Files\OrcadLite\PSpice\PSpice.ini file:
.lib "nom.lib" 

*Analysis directives: 
.PROBE V(*) I(*) W(*) D(*) NOISE(*) 
.INC ".\main-SCHEMATIC1.net" 



**** INCLUDING main-SCHEMATIC1.net ****
* source MAIN
V_V1         N00080 0 5V
R_R1         N00080 N00110  1k  
D_D1         N00110 0 D1N4002 
R_R2         N00572 N00522  10k  
R_R4         N00572 N00873  5k  
V_V5         N00522 0 5V
R_R5         0 N00572  10k  
R_R7         N00873 N00522  5k  
R_R6         0 N00873  10k  

**** RESUMING main-schematic1-m.sim.cir ****
.END

**** 04/16/22 22:06:40 ************** PSpice Lite (Mar 2000) *****************

 ** Profile: "SCHEMATIC1-m"  [ D:\NUST\Semester 4\Electronic Devices and Circuits\Labs\Lab 3\main-schematic1-m.sim ] 


 ****     Diode MODEL PARAMETERS


******************************************************************************




               D1N4002         
          IS   14.110000E-09 
           N    1.984        
         ISR  100.000000E-12 
         IKF   94.81         
          BV  100.1          
         IBV   10            
          RS     .03389      
          TT    4.761000E-06 
         CJO   51.170000E-12 
          VJ     .3905       
           M     .2762       


**** 04/16/22 22:06:40 ************** PSpice Lite (Mar 2000) *****************

 ** Profile: "SCHEMATIC1-m"  [ D:\NUST\Semester 4\Electronic Devices and Circuits\Labs\Lab 3\main-schematic1-m.sim ] 


 ****     SMALL SIGNAL BIAS SOLUTION       TEMPERATURE =   27.000 DEG C


******************************************************************************



 NODE   VOLTAGE     NODE   VOLTAGE     NODE   VOLTAGE     NODE   VOLTAGE


(N00080)    5.0000 (N00110)     .6484 (N00522)    5.0000 (N00572)    2.8125     

(N00873)    3.1250 




    VOLTAGE SOURCE CURRENTS
    NAME         CURRENT

    V_V1        -4.352E-03
    V_V5        -5.938E-04

    TOTAL POWER DISSIPATION   2.47E-02  WATTS



          JOB CONCLUDED

          TOTAL JOB TIME             .02
