
**** 04/21/22 23:35:46 ************** PSpice Lite (Mar 2000) *****************

 ** Profile: "SCHEMATIC2-A"  [ D:\NUST\SEMESTER 4\ELECTRONIC DEVICES AND CIRCUITS\LABS\Lab 8\lab8-schematic2-a.sim ] 


 ****     CIRCUIT DESCRIPTION


******************************************************************************




** Creating circuit file "lab8-schematic2-a.sim.cir" 
** WARNING: THIS AUTOMATICALLY GENERATED FILE MAY BE OVERWRITTEN BY SUBSEQUENT SIMULATIONS

*Libraries: 
* Local Libraries :
* From [PSPICE NETLIST] section of C:\Program Files\OrcadLite\PSpice\PSpice.ini file:
.lib "nom.lib" 

*Analysis directives: 
.TRAN  0 10m 0 0.00001 
.PROBE V(*) I(*) W(*) D(*) NOISE(*) 
.INC ".\lab8-SCHEMATIC2.net" 



**** INCLUDING lab8-SCHEMATIC2.net ****
* source LAB8
R_R2         0 N00302  10k  
R_R1         N00302 N00252  33k  
R_R3         N00425 N00252  3k  
C_C3         N00425 N06657  0.1uF  
Q_Q1         N00425 N00302 N00363 Q2N2222
V_V2         N03540 0  
+SIN 0 50m 1k 0 0 0
R_R4         0 N00363  1k  
C_C2         N00363 0  1uF  
R_R6         0 N06657  1k  
C_C1         N03540 N00302  0.22uF  
V_V1         N00252 0 10V

**** RESUMING lab8-schematic2-a.sim.cir ****
.END

**** 04/21/22 23:35:46 ************** PSpice Lite (Mar 2000) *****************

 ** Profile: "SCHEMATIC2-A"  [ D:\NUST\SEMESTER 4\ELECTRONIC DEVICES AND CIRCUITS\LABS\Lab 8\lab8-schematic2-a.sim ] 


 ****     BJT MODEL PARAMETERS


******************************************************************************




               Q2N2222         
               NPN             
          IS   14.340000E-15 
          BF  255.9          
          NF    1            
         VAF   74.03         
         IKF     .2847       
         ISE   14.340000E-15 
          NE    1.307        
          BR    6.092        
          NR    1            
          RB   10            
          RC    1            
         CJE   22.010000E-12 
         MJE     .377        
         CJC    7.306000E-12 
         MJC     .3416       
          TF  411.100000E-12 
         XTF    3            
         VTF    1.7          
         ITF     .6          
          TR   46.910000E-09 
         XTB    1.5          
          CN    2.42         
           D     .87         


**** 04/21/22 23:35:46 ************** PSpice Lite (Mar 2000) *****************

 ** Profile: "SCHEMATIC2-A"  [ D:\NUST\SEMESTER 4\ELECTRONIC DEVICES AND CIRCUITS\LABS\Lab 8\lab8-schematic2-a.sim ] 


 ****     INITIAL TRANSIENT SOLUTION       TEMPERATURE =   27.000 DEG C


******************************************************************************



 NODE   VOLTAGE     NODE   VOLTAGE     NODE   VOLTAGE     NODE   VOLTAGE


(N00252)   10.0000 (N00302)    2.2496 (N00363)    1.5927 (N00425)    5.2516     

(N03540)    0.0000 (N06657)    0.0000 




    VOLTAGE SOURCE CURRENTS
    NAME         CURRENT

    V_V2         0.000E+00
    V_V1        -1.818E-03

    TOTAL POWER DISSIPATION   1.82E-02  WATTS



          JOB CONCLUDED

          TOTAL JOB TIME             .05
