
**** 03/27/22 22:37:25 ************** PSpice Lite (Mar 2000) *****************

 ** Profile: "SCHEMATIC1-Test"  [ D:\NUST\SEMESTER 4\ELECTRONIC DEVICES AND CIRCUITS\LABS\Lab 5\sample-SCHEMATIC1-Test.sim ] 


 ****     CIRCUIT DESCRIPTION


******************************************************************************




** Creating circuit file "sample-SCHEMATIC1-Test.sim.cir" 
** WARNING: THIS AUTOMATICALLY GENERATED FILE MAY BE OVERWRITTEN BY SUBSEQUENT SIMULATIONS

*Libraries: 
* Local Libraries :
* From [PSPICE NETLIST] section of C:\Program Files\OrcadLite\PSpice\PSpice.ini file:
.lib "nom.lib" 

*Analysis directives: 
.PROBE V(*) I(*) W(*) D(*) NOISE(*) 
.INC ".\sample-SCHEMATIC1.net" 



**** INCLUDING sample-SCHEMATIC1.net ****
* source SAMPLE
R_R6         N01099 N01159  9  
I_I3         0 N01500 DC 3  
R_R7         N01159 N01217  1  
R_R8         N01500 N01159  10  
R_R9         0 N01217  7  
V_V2         N01069 0 10
R_R4         N01500 N01069  4  
R_R5         N01099 N01069  5  

**** RESUMING sample-SCHEMATIC1-Test.sim.cir ****
.END

**** 03/27/22 22:37:25 ************** PSpice Lite (Mar 2000) *****************

 ** Profile: "SCHEMATIC1-Test"  [ D:\NUST\SEMESTER 4\ELECTRONIC DEVICES AND CIRCUITS\LABS\Lab 5\sample-SCHEMATIC1-Test.sim ] 


 ****     SMALL SIGNAL BIAS SOLUTION       TEMPERATURE =   27.000 DEG C


******************************************************************************



 NODE   VOLTAGE     NODE   VOLTAGE     NODE   VOLTAGE     NODE   VOLTAGE


(N01069)   10.0000 (N01099)    9.4762 (N01159)    8.5333 (N01217)    7.4667     

(N01500)   18.1520 




    VOLTAGE SOURCE CURRENTS
    NAME         CURRENT

    V_V2         1.933E+00

    TOTAL POWER DISSIPATION  -1.93E+01  WATTS



          JOB CONCLUDED

          TOTAL JOB TIME            0.00
