
**** 09/25/22 16:36:41 ************** PSpice Lite (Mar 2000) *****************

 ** Profile: "SCHEMATIC1-sim"  [ D:\NUST\SEMESTER 5\ELECTRONIC CIRCUIT DESIGN\LABS\Lab 2\main-SCHEMATIC1-sim.sim ] 


 ****     CIRCUIT DESCRIPTION


******************************************************************************




** Creating circuit file "main-SCHEMATIC1-sim.sim.cir" 
** WARNING: THIS AUTOMATICALLY GENERATED FILE MAY BE OVERWRITTEN BY SUBSEQUENT SIMULATIONS

*Libraries: 
* Local Libraries :
* From [PSPICE NETLIST] section of C:\Program Files\OrcadLite\PSpice\PSpice.ini file:
.lib "nom.lib" 

*Analysis directives: 
.TRAN  0 0.0005 0 0.000001 
.PROBE V(*) I(*) W(*) D(*) NOISE(*) 
.INC ".\main-SCHEMATIC1.net" 



**** INCLUDING main-SCHEMATIC1.net ****
* source MAIN
R_R2         0 N00302  8k  
R_R1         N00302 N00252  33k  
R_R3         N00425 N00252  1.8k  
C_C3         N00425 M_UN0001  10u  
Q_Q1         N00425 N00302 N00363 Q2N2222
V_V2         N03540 0  
+SIN 0 10m 10k 0 0 0
R_R4         0 N00363  1k  
C_C2         N00363 0  100u  
C_C1         N03540 N00302  10u  
V_V1         N00252 0 25
** Floating/unmodeled pin fixups **
R__UC0001   M_UN0001  0   {1/GMIN}

**** RESUMING main-SCHEMATIC1-sim.sim.cir ****
.END

**** 09/25/22 16:36:41 ************** PSpice Lite (Mar 2000) *****************

 ** Profile: "SCHEMATIC1-sim"  [ D:\NUST\SEMESTER 5\ELECTRONIC CIRCUIT DESIGN\LABS\Lab 2\main-SCHEMATIC1-sim.sim ] 


 ****     BJT MODEL PARAMETERS


******************************************************************************




               Q2N2222         
               NPN             
          IS   14.340000E-15 
          BF  255.9          
          NF    1            
         VAF   74.03         
         IKF     .2847       
         ISE   14.340000E-15 
          NE    1.307        
          BR    6.092        
          NR    1            
          RB   10            
          RC    1            
         CJE   22.010000E-12 
         MJE     .377        
         CJC    7.306000E-12 
         MJC     .3416       
          TF  411.100000E-12 
         XTF    3            
         VTF    1.7          
         ITF     .6          
          TR   46.910000E-09 
         XTB    1.5          
          CN    2.42         
           D     .87         


**** 09/25/22 16:36:41 ************** PSpice Lite (Mar 2000) *****************

 ** Profile: "SCHEMATIC1-sim"  [ D:\NUST\SEMESTER 5\ELECTRONIC CIRCUIT DESIGN\LABS\Lab 2\main-SCHEMATIC1-sim.sim ] 


 ****     INITIAL TRANSIENT SOLUTION       TEMPERATURE =   27.000 DEG C


******************************************************************************



 NODE   VOLTAGE     NODE   VOLTAGE     NODE   VOLTAGE     NODE   VOLTAGE


(N00252)   25.0000 (N00302)    4.7430 (N00363)    4.0647 (N00425)   17.7210     

(N03540)    0.0000 (M_UN0001)    0.0000                  




    VOLTAGE SOURCE CURRENTS
    NAME         CURRENT

    V_V2         0.000E+00
    V_V1        -4.658E-03

    TOTAL POWER DISSIPATION   1.16E-01  WATTS



          JOB CONCLUDED

          TOTAL JOB TIME             .03
