
**** 11/30/20 21:25:08 ************** PSpice Lite (Mar 2000) *****************

 ** Profile: "SCHEMATIC1-asd"  [ F:\NUST\Semester 1\Linear Circuit Analysis\Labs\PSpice\a123-SCHEMATIC1-asd.sim ] 


 ****     CIRCUIT DESCRIPTION


******************************************************************************




** Creating circuit file "a123-SCHEMATIC1-asd.sim.cir" 
** WARNING: THIS AUTOMATICALLY GENERATED FILE MAY BE OVERWRITTEN BY SUBSEQUENT SIMULATIONS

*Libraries: 
* Local Libraries :
* From [PSPICE NETLIST] section of C:\Program Files\OrcadLite\PSpice\PSpice.ini file:
.lib "nom.lib" 

*Analysis directives: 
.PROBE V(*) I(*) W(*) D(*) NOISE(*) 
.INC ".\a123-SCHEMATIC1.net" 



**** INCLUDING a123-SCHEMATIC1.net ****
* source A123
V_V2         N02047 0 10.5
R_R3         N00130 N00191  1.2k  
R_R5         N02047 N02063  675.44  
R_R4         0 N00130  470  
R_R6         0 N02063  1.8k  
R_R1         N00652 N00191  470  
R_R7         N00130 N00652  1.8k  
R_R2         0 N00652  1.2k  
V_V5         N00191 0 24

**** RESUMING a123-SCHEMATIC1-asd.sim.cir ****
.END

**** 11/30/20 21:25:08 ************** PSpice Lite (Mar 2000) *****************

 ** Profile: "SCHEMATIC1-asd"  [ F:\NUST\Semester 1\Linear Circuit Analysis\Labs\PSpice\a123-SCHEMATIC1-asd.sim ] 


 ****     SMALL SIGNAL BIAS SOLUTION       TEMPERATURE =   27.000 DEG C


******************************************************************************



 NODE   VOLTAGE     NODE   VOLTAGE     NODE   VOLTAGE     NODE   VOLTAGE


(N00130)    8.1858 (N00191)   24.0000 (N00652)   15.8140 (N02047)   10.5000     

(N02063)    7.6350 




    VOLTAGE SOURCE CURRENTS
    NAME         CURRENT

    V_V2        -4.242E-03
    V_V5        -3.060E-02

    TOTAL POWER DISSIPATION   7.79E-01  WATTS



          JOB CONCLUDED

          TOTAL JOB TIME             .02
