
**** 12/07/20 18:13:50 ************** PSpice Lite (Mar 2000) *****************

 ** Profile: "SCHEMATIC1-a"  [ F:\NUST\Semester 1\Linear Circuit Analysis\Labs\PSpice\asdasdasdcxv-schematic1-a.sim ] 


 ****     CIRCUIT DESCRIPTION


******************************************************************************




** Creating circuit file "asdasdasdcxv-schematic1-a.sim.cir" 
** WARNING: THIS AUTOMATICALLY GENERATED FILE MAY BE OVERWRITTEN BY SUBSEQUENT SIMULATIONS

*Libraries: 
* Local Libraries :
* From [PSPICE NETLIST] section of C:\Program Files\OrcadLite\PSpice\PSpice.ini file:
.lib "nom.lib" 

*Analysis directives: 
.PROBE V(*) I(*) W(*) D(*) NOISE(*) 
.INC ".\asdasdasdcxv-SCHEMATIC1.net" 



**** INCLUDING asdasdasdcxv-SCHEMATIC1.net ****
* source ASDASDASDCXV
R_R4         N00937 N00774  1k  
R_R5         0 N00937  1k  
R_R6         N02977 N00774  1k  
V_V2         N00744 0 15
V_V4         N03569 0 7.14
R_R14         N03569 N03599  2.047k  
R_R15         0 N03599  4.7k  
R_R3         N00744 N00774  2.2k  
R_R13         0 N02977  4.7k  

**** RESUMING asdasdasdcxv-schematic1-a.sim.cir ****
.END

**** 12/07/20 18:13:50 ************** PSpice Lite (Mar 2000) *****************

 ** Profile: "SCHEMATIC1-a"  [ F:\NUST\Semester 1\Linear Circuit Analysis\Labs\PSpice\asdasdasdcxv-schematic1-a.sim ] 


 ****     SMALL SIGNAL BIAS SOLUTION       TEMPERATURE =   27.000 DEG C


******************************************************************************



 NODE   VOLTAGE     NODE   VOLTAGE     NODE   VOLTAGE     NODE   VOLTAGE


(N00744)   15.0000 (N00774)    6.0339 (N00937)    3.0169 (N02977)    4.9753     

(N03569)    7.1400 (N03599)    4.9738 




    VOLTAGE SOURCE CURRENTS
    NAME         CURRENT

    V_V2        -4.076E-03
    V_V4        -1.058E-03

    TOTAL POWER DISSIPATION   6.87E-02  WATTS



          JOB CONCLUDED

          TOTAL JOB TIME             .02
