
**** 11/24/20 18:37:42 ************** PSpice Lite (Mar 2000) *****************

 ** Profile: "SCHEMATIC1-asd"  [ F:\NUST\Semester 1\Linear Circuit Analysis\Labs\PSpice\asdasdcv-SCHEMATIC1-asd.sim ] 


 ****     CIRCUIT DESCRIPTION


******************************************************************************




** Creating circuit file "asdasdcv-SCHEMATIC1-asd.sim.cir" 
** WARNING: THIS AUTOMATICALLY GENERATED FILE MAY BE OVERWRITTEN BY SUBSEQUENT SIMULATIONS

*Libraries: 
* Local Libraries :
* From [PSPICE NETLIST] section of C:\Program Files\OrcadLite\PSpice\PSpice.ini file:
.lib "nom.lib" 

*Analysis directives: 
.PROBE V(*) I(*) W(*) D(*) NOISE(*) 
.INC ".\asdasdcv-SCHEMATIC1.net" 



**** INCLUDING asdasdcv-SCHEMATIC1.net ****
* source ASDASDCV
V_V1         N00181 0 1
R_R1         N00181 N00211  300  
G_G1         0 N00269 N00211 N00269 0.003
R_R2         N00211 0  70k  
R_R3         N00211 N00269  10k  
R_R4         0 N00269  567567  
R_R5         0 N00269  8  

**** RESUMING asdasdcv-SCHEMATIC1-asd.sim.cir ****
.END

**** 11/24/20 18:37:42 ************** PSpice Lite (Mar 2000) *****************

 ** Profile: "SCHEMATIC1-asd"  [ F:\NUST\Semester 1\Linear Circuit Analysis\Labs\PSpice\asdasdcv-SCHEMATIC1-asd.sim ] 


 ****     SMALL SIGNAL BIAS SOLUTION       TEMPERATURE =   27.000 DEG C


******************************************************************************



 NODE   VOLTAGE     NODE   VOLTAGE     NODE   VOLTAGE     NODE   VOLTAGE


(N00181)    1.0000 (N00211)     .9675 (N00269)     .0234 




    VOLTAGE SOURCE CURRENTS
    NAME         CURRENT

    V_V1        -1.082E-04

    TOTAL POWER DISSIPATION   1.08E-04  WATTS



          JOB CONCLUDED

          TOTAL JOB TIME             .03
