
**** 11/16/20 19:38:18 ************** PSpice Lite (Mar 2000) *****************

 ** Profile: "SCHEMATIC1-a"  [ F:\NUST\Semester 1\Linear Circuit Analysis\Labs\PSpice\asdasd-SCHEMATIC1-a.sim ] 


 ****     CIRCUIT DESCRIPTION


******************************************************************************




** Creating circuit file "asdasd-SCHEMATIC1-a.sim.cir" 
** WARNING: THIS AUTOMATICALLY GENERATED FILE MAY BE OVERWRITTEN BY SUBSEQUENT SIMULATIONS

*Libraries: 
* Local Libraries :
* From [PSPICE NETLIST] section of C:\Program Files\OrcadLite\PSpice\PSpice.ini file:
.lib "nom.lib" 

*Analysis directives: 
.PROBE V(*) I(*) W(*) D(*) NOISE(*) 
.INC ".\asdasd-SCHEMATIC1.net" 



**** INCLUDING asdasd-SCHEMATIC1.net ****
* source ASDASD
R_R1         0 N00135  40  
R_R2         N00983 N00295  10  
R_R3         N00295 N00353  20  
V_V1         0 N00353 30
I_I1         0 N00135 DC 6  
X_F1    N00135 N00983 0 N00295 SCHEMATIC1_F1 

.subckt SCHEMATIC1_F1 1 2 3 4  
F_F1         3 4 VF_F1 4
VF_F1         1 2 0V
.ends SCHEMATIC1_F1

**** RESUMING asdasd-SCHEMATIC1-a.sim.cir ****
.END

**** 11/16/20 19:38:18 ************** PSpice Lite (Mar 2000) *****************

 ** Profile: "SCHEMATIC1-a"  [ F:\NUST\Semester 1\Linear Circuit Analysis\Labs\PSpice\asdasd-SCHEMATIC1-a.sim ] 


 ****     SMALL SIGNAL BIAS SOLUTION       TEMPERATURE =   27.000 DEG C


******************************************************************************



 NODE   VOLTAGE     NODE   VOLTAGE     NODE   VOLTAGE     NODE   VOLTAGE


(N00135)  168.0000 (N00295)  150.0000 (N00353)  -30.0000 (N00983)  168.0000 




    VOLTAGE SOURCE CURRENTS
    NAME         CURRENT

    V_V1        -9.000E+00
    X_F1.VF_F1   1.800E+00

    TOTAL POWER DISSIPATION   2.70E+02  WATTS



          JOB CONCLUDED

          TOTAL JOB TIME            0.00
