
**** 01/26/21 20:49:26 ************** PSpice Lite (Mar 2000) *****************

 ** Profile: "SCHEMATIC1-asd"  [ F:\NUST\Semester 1\Linear Circuit Analysis\Labs\PSpice\asdcxvxc-SCHEMATIC1-asd.sim ] 


 ****     CIRCUIT DESCRIPTION


******************************************************************************




** Creating circuit file "asdcxvxc-SCHEMATIC1-asd.sim.cir" 
** WARNING: THIS AUTOMATICALLY GENERATED FILE MAY BE OVERWRITTEN BY SUBSEQUENT SIMULATIONS

*Libraries: 
* Local Libraries :
* From [PSPICE NETLIST] section of C:\Program Files\OrcadLite\PSpice\PSpice.ini file:
.lib "nom.lib" 

*Analysis directives: 
.PROBE V(*) I(*) W(*) D(*) NOISE(*) 
.INC ".\asdcxvxc-SCHEMATIC1.net" 



**** INCLUDING asdcxvxc-SCHEMATIC1.net ****
* source ASDCXVXC
R_R1         N00104 N00134  1.5k  
V_V1         N00104 0 45
V_V2         N00134 0 46

**** RESUMING asdcxvxc-SCHEMATIC1-asd.sim.cir ****
.END

**** 01/26/21 20:49:26 ************** PSpice Lite (Mar 2000) *****************

 ** Profile: "SCHEMATIC1-asd"  [ F:\NUST\Semester 1\Linear Circuit Analysis\Labs\PSpice\asdcxvxc-SCHEMATIC1-asd.sim ] 


 ****     SMALL SIGNAL BIAS SOLUTION       TEMPERATURE =   27.000 DEG C


******************************************************************************



 NODE   VOLTAGE     NODE   VOLTAGE     NODE   VOLTAGE     NODE   VOLTAGE


(N00104)   45.0000 (N00134)   46.0000 




    VOLTAGE SOURCE CURRENTS
    NAME         CURRENT

    V_V1         6.667E-04
    V_V2        -6.667E-04

    TOTAL POWER DISSIPATION   6.67E-04  WATTS



          JOB CONCLUDED

          TOTAL JOB TIME             .02
