
**** 12/03/20 14:48:46 ************** PSpice Lite (Mar 2000) *****************

 ** Profile: "SCHEMATIC1-a"  [ F:\NUST\Semester 1\Linear Circuit Analysis\Labs\PSpice\asddfg-SCHEMATIC1-a.sim ] 


 ****     CIRCUIT DESCRIPTION


******************************************************************************




** Creating circuit file "asddfg-SCHEMATIC1-a.sim.cir" 
** WARNING: THIS AUTOMATICALLY GENERATED FILE MAY BE OVERWRITTEN BY SUBSEQUENT SIMULATIONS

*Libraries: 
* Local Libraries :
* From [PSPICE NETLIST] section of C:\Program Files\OrcadLite\PSpice\PSpice.ini file:
.lib "nom.lib" 

*Analysis directives: 
.PROBE V(*) I(*) W(*) D(*) NOISE(*) 
.INC ".\asddfg-SCHEMATIC1.net" 



**** INCLUDING asddfg-SCHEMATIC1.net ****
* source ASDDFG
R_R10         N03470 0  6  
E_E4         N03470 N04060 N04060 0 2
V_V2         0 N05312 1
R_R7         N04060 N03470  2  
R_R9         N03470 N05312  12  
R_R8         0 N04060  4  

**** RESUMING asddfg-SCHEMATIC1-a.sim.cir ****
.END

**** 12/03/20 14:48:46 ************** PSpice Lite (Mar 2000) *****************

 ** Profile: "SCHEMATIC1-a"  [ F:\NUST\Semester 1\Linear Circuit Analysis\Labs\PSpice\asddfg-SCHEMATIC1-a.sim ] 


 ****     SMALL SIGNAL BIAS SOLUTION       TEMPERATURE =   27.000 DEG C


******************************************************************************



 NODE   VOLTAGE     NODE   VOLTAGE     NODE   VOLTAGE     NODE   VOLTAGE


(N03470)    -.2500 (N04060)    -.0833 (N05312)   -1.0000 




    VOLTAGE SOURCE CURRENTS
    NAME         CURRENT

    V_V2        -6.250E-02

    TOTAL POWER DISSIPATION   6.25E-02  WATTS



          JOB CONCLUDED

          TOTAL JOB TIME             .02
