
**** 12/01/20 14:47:51 ************** PSpice Lite (Mar 2000) *****************

 ** Profile: "SCHEMATIC1-a"  [ F:\NUST\Semester 1\Linear Circuit Analysis\Labs\PSpice\bnm-SCHEMATIC1-a.sim ] 


 ****     CIRCUIT DESCRIPTION


******************************************************************************




** Creating circuit file "bnm-SCHEMATIC1-a.sim.cir" 
** WARNING: THIS AUTOMATICALLY GENERATED FILE MAY BE OVERWRITTEN BY SUBSEQUENT SIMULATIONS

*Libraries: 
* Local Libraries :
* From [PSPICE NETLIST] section of C:\Program Files\OrcadLite\PSpice\PSpice.ini file:
.lib "nom.lib" 

*Analysis directives: 
.PROBE V(*) I(*) W(*) D(*) NOISE(*) 
.INC ".\bnm-SCHEMATIC1.net" 



**** INCLUDING bnm-SCHEMATIC1.net ****
* source BNM
V_V1         N00215 0 24
V_V2         N00363 0 38
I_I1         N00334 N00245 DC 4Adc  
R_R1         N00215 N00245  6  
R_R2         0 N00245  3  
R_R3         N00245 N00334  5  
R_R4         0 N00334  12  
R_R5         N00334 N00363  4  

**** RESUMING bnm-SCHEMATIC1-a.sim.cir ****
.END

**** 12/01/20 14:47:51 ************** PSpice Lite (Mar 2000) *****************

 ** Profile: "SCHEMATIC1-a"  [ F:\NUST\Semester 1\Linear Circuit Analysis\Labs\PSpice\bnm-SCHEMATIC1-a.sim ] 


 ****     SMALL SIGNAL BIAS SOLUTION       TEMPERATURE =   27.000 DEG C


******************************************************************************



 NODE   VOLTAGE     NODE   VOLTAGE     NODE   VOLTAGE     NODE   VOLTAGE


(N00215)   24.0000 (N00245)   16.1000 (N00334)   16.3500 (N00363)   38.0000 




    VOLTAGE SOURCE CURRENTS
    NAME         CURRENT

    V_V1        -1.317E+00
    V_V2        -5.413E+00

    TOTAL POWER DISSIPATION   2.37E+02  WATTS



          JOB CONCLUDED

          TOTAL JOB TIME             .05
