
**** 02/08/21 13:26:06 ************** PSpice Lite (Mar 2000) *****************

 ** Profile: "SCHEMATIC1-ad"  [ F:\NUST\Semester 1\Linear Circuit Analysis\Labs\PSpice\exam-SCHEMATIC1-ad.sim ] 


 ****     CIRCUIT DESCRIPTION


******************************************************************************




** Creating circuit file "exam-SCHEMATIC1-ad.sim.cir" 
** WARNING: THIS AUTOMATICALLY GENERATED FILE MAY BE OVERWRITTEN BY SUBSEQUENT SIMULATIONS

*Libraries: 
* Local Libraries :
* From [PSPICE NETLIST] section of C:\Program Files\OrcadLite\PSpice\PSpice.ini file:
.lib "nom.lib" 

*Analysis directives: 
.PROBE V(*) I(*) W(*) D(*) NOISE(*) 
.INC ".\exam-SCHEMATIC1.net" 



**** INCLUDING exam-SCHEMATIC1.net ****
* source EXAM
R_R2         N00348 N00182  2k  
R_R3         0 N00348  6k  
R_R4         0 N00259  2k  
R_R5         N00259 N00182  6k  
V_V5         N00182 0 12

**** RESUMING exam-SCHEMATIC1-ad.sim.cir ****
.END

**** 02/08/21 13:26:06 ************** PSpice Lite (Mar 2000) *****************

 ** Profile: "SCHEMATIC1-ad"  [ F:\NUST\Semester 1\Linear Circuit Analysis\Labs\PSpice\exam-SCHEMATIC1-ad.sim ] 


 ****     SMALL SIGNAL BIAS SOLUTION       TEMPERATURE =   27.000 DEG C


******************************************************************************



 NODE   VOLTAGE     NODE   VOLTAGE     NODE   VOLTAGE     NODE   VOLTAGE


(N00182)   12.0000 (N00259)    3.0000 (N00348)    9.0000 




    VOLTAGE SOURCE CURRENTS
    NAME         CURRENT

    V_V5        -3.000E-03

    TOTAL POWER DISSIPATION   3.60E-02  WATTS



          JOB CONCLUDED

          TOTAL JOB TIME            0.00
