
**** 12/21/20 16:35:49 ************** PSpice Lite (Mar 2000) *****************

 ** Profile: "SCHEMATIC1-asd"  [ F:\NUST\Semester 1\Linear Circuit Analysis\Labs\PSpice\kai-SCHEMATIC1-asd.sim ] 


 ****     CIRCUIT DESCRIPTION


******************************************************************************




** Creating circuit file "kai-SCHEMATIC1-asd.sim.cir" 
** WARNING: THIS AUTOMATICALLY GENERATED FILE MAY BE OVERWRITTEN BY SUBSEQUENT SIMULATIONS

*Libraries: 
* Local Libraries :
* From [PSPICE NETLIST] section of C:\Program Files\OrcadLite\PSpice\PSpice.ini file:
.lib "nom.lib" 

*Analysis directives: 
.PROBE V(*) I(*) W(*) D(*) NOISE(*) 
.INC ".\kai-SCHEMATIC1.net" 



**** INCLUDING kai-SCHEMATIC1.net ****
* source KAI
R_Rth         N00805 N00835  2.909k  
R_Rload         0 N00835  2.909  
V_V1         N00805 0 9.091

**** RESUMING kai-SCHEMATIC1-asd.sim.cir ****
.END

**** 12/21/20 16:35:49 ************** PSpice Lite (Mar 2000) *****************

 ** Profile: "SCHEMATIC1-asd"  [ F:\NUST\Semester 1\Linear Circuit Analysis\Labs\PSpice\kai-SCHEMATIC1-asd.sim ] 


 ****     SMALL SIGNAL BIAS SOLUTION       TEMPERATURE =   27.000 DEG C


******************************************************************************



 NODE   VOLTAGE     NODE   VOLTAGE     NODE   VOLTAGE     NODE   VOLTAGE


(N00805)    9.0910 (N00835)     .0091 




    VOLTAGE SOURCE CURRENTS
    NAME         CURRENT

    V_V1        -3.122E-03

    TOTAL POWER DISSIPATION   2.84E-02  WATTS



          JOB CONCLUDED

          TOTAL JOB TIME            0.00
