
**** 11/23/20 15:26:53 ************** PSpice Lite (Mar 2000) *****************

 ** Profile: "SCHEMATIC1-a"  [ F:\NUST\Semester 1\Linear Circuit Analysis\Labs\PSpice\lab6b-SCHEMATIC1-a.sim ] 


 ****     CIRCUIT DESCRIPTION


******************************************************************************




** Creating circuit file "lab6b-SCHEMATIC1-a.sim.cir" 
** WARNING: THIS AUTOMATICALLY GENERATED FILE MAY BE OVERWRITTEN BY SUBSEQUENT SIMULATIONS

*Libraries: 
* Local Libraries :
* From [PSPICE NETLIST] section of C:\Program Files\OrcadLite\PSpice\PSpice.ini file:
.lib "nom.lib" 

*Analysis directives: 
.PROBE V(*) I(*) W(*) D(*) NOISE(*) 
.INC ".\lab6b-SCHEMATIC1.net" 



**** INCLUDING lab6b-SCHEMATIC1.net ****
* source LAB6B
R_R1         N00274 N00382  1k  
R_R2         0 N00382  5k  
R_R3         N00382 N00447  10k  
R_R4         0 N00447  1k  
R_R5         N00274 N00324  1k  
R_R6         N00324 N00447  5k  
V_V1         N00274 0 20V
V_V2         N00324 N00382 15V

**** RESUMING lab6b-SCHEMATIC1-a.sim.cir ****
.END

**** 11/23/20 15:26:53 ************** PSpice Lite (Mar 2000) *****************

 ** Profile: "SCHEMATIC1-a"  [ F:\NUST\Semester 1\Linear Circuit Analysis\Labs\PSpice\lab6b-SCHEMATIC1-a.sim ] 


 ****     SMALL SIGNAL BIAS SOLUTION       TEMPERATURE =   27.000 DEG C


******************************************************************************



 NODE   VOLTAGE     NODE   VOLTAGE     NODE   VOLTAGE     NODE   VOLTAGE


(N00274)   20.0000 (N00324)   24.3350 (N00382)    9.3354 (N00447)    4.4620 




    VOLTAGE SOURCE CURRENTS
    NAME         CURRENT

    V_V1        -6.329E-03
    V_V2        -8.310E-03

    TOTAL POWER DISSIPATION   2.51E-01  WATTS



          JOB CONCLUDED

          TOTAL JOB TIME            0.00
