
**** 01/04/21 15:21:17 ************** PSpice Lite (Mar 2000) *****************

 ** Profile: "SCHEMATIC1-asd"  [ F:\NUST\Semester 1\Linear Circuit Analysis\Labs\PSpice\quizzes-SCHEMATIC1-asd.sim ] 


 ****     CIRCUIT DESCRIPTION


******************************************************************************




** Creating circuit file "quizzes-SCHEMATIC1-asd.sim.cir" 
** WARNING: THIS AUTOMATICALLY GENERATED FILE MAY BE OVERWRITTEN BY SUBSEQUENT SIMULATIONS

*Libraries: 
* Local Libraries :
* From [PSPICE NETLIST] section of C:\Program Files\OrcadLite\PSpice\PSpice.ini file:
.lib "nom.lib" 

*Analysis directives: 
.PROBE V(*) I(*) W(*) D(*) NOISE(*) 
.INC ".\quizzes-SCHEMATIC1.net" 



**** INCLUDING quizzes-SCHEMATIC1.net ****
* source QUIZZES
R_R6         N00592 0  7k  
V_V2         N00504 0 12
R_R3         N00504 N00534  10k  
R_R4         0 N00534  10k  
R_R5         N00592 N00534  2k  

**** RESUMING quizzes-SCHEMATIC1-asd.sim.cir ****
.END

**** 01/04/21 15:21:17 ************** PSpice Lite (Mar 2000) *****************

 ** Profile: "SCHEMATIC1-asd"  [ F:\NUST\Semester 1\Linear Circuit Analysis\Labs\PSpice\quizzes-SCHEMATIC1-asd.sim ] 


 ****     SMALL SIGNAL BIAS SOLUTION       TEMPERATURE =   27.000 DEG C


******************************************************************************



 NODE   VOLTAGE     NODE   VOLTAGE     NODE   VOLTAGE     NODE   VOLTAGE


(N00504)   12.0000 (N00534)    3.8571 (N00592)    3.0000 




    VOLTAGE SOURCE CURRENTS
    NAME         CURRENT

    V_V2        -8.143E-04

    TOTAL POWER DISSIPATION   9.77E-03  WATTS



          JOB CONCLUDED

          TOTAL JOB TIME             .02
