
**** 12/11/20 10:50:00 ************** PSpice Lite (Mar 2000) *****************

 ** Profile: "SCHEMATIC1-s"  [ F:\NUST\Semester 1\Linear Circuit Analysis\Labs\PSpice\quiz-SCHEMATIC1-s.sim ] 


 ****     CIRCUIT DESCRIPTION


******************************************************************************




** Creating circuit file "quiz-SCHEMATIC1-s.sim.cir" 
** WARNING: THIS AUTOMATICALLY GENERATED FILE MAY BE OVERWRITTEN BY SUBSEQUENT SIMULATIONS

*Libraries: 
* Local Libraries :
* From [PSPICE NETLIST] section of C:\Program Files\OrcadLite\PSpice\PSpice.ini file:
.lib "nom.lib" 

*Analysis directives: 
.PROBE V(*) I(*) W(*) D(*) NOISE(*) 
.INC ".\quiz-SCHEMATIC1.net" 



**** INCLUDING quiz-SCHEMATIC1.net ****
* source QUIZ
C_C1         0 N00239  5uC  
V_V1         N00209 0 30
R_R1         N00209 N00239  5  
R_R2         N00239 N00297  10  
L_L1         N00297 0  8mH  

**** RESUMING quiz-SCHEMATIC1-s.sim.cir ****
.END

**** 12/11/20 10:50:00 ************** PSpice Lite (Mar 2000) *****************

 ** Profile: "SCHEMATIC1-s"  [ F:\NUST\Semester 1\Linear Circuit Analysis\Labs\PSpice\quiz-SCHEMATIC1-s.sim ] 


 ****     SMALL SIGNAL BIAS SOLUTION       TEMPERATURE =   27.000 DEG C


******************************************************************************



 NODE   VOLTAGE     NODE   VOLTAGE     NODE   VOLTAGE     NODE   VOLTAGE


(N00209)   30.0000 (N00239)   20.0000 (N00297)    0.0000 




    VOLTAGE SOURCE CURRENTS
    NAME         CURRENT

    V_V1        -2.000E+00

    TOTAL POWER DISSIPATION   6.00E+01  WATTS



          JOB CONCLUDED

          TOTAL JOB TIME            0.00
