
**** 01/04/21 12:06:53 ************** PSpice Lite (Mar 2000) *****************

 ** Profile: "SCHEMATIC1-sasd"  [ F:\NUST\Semester 1\Linear Circuit Analysis\Labs\PSpice\quiz1-SCHEMATIC1-sasd.sim ] 


 ****     CIRCUIT DESCRIPTION


******************************************************************************




** Creating circuit file "quiz1-SCHEMATIC1-sasd.sim.cir" 
** WARNING: THIS AUTOMATICALLY GENERATED FILE MAY BE OVERWRITTEN BY SUBSEQUENT SIMULATIONS

*Libraries: 
* Local Libraries :
* From [PSPICE NETLIST] section of C:\Program Files\OrcadLite\PSpice\PSpice.ini file:
.lib "nom.lib" 

*Analysis directives: 
.PROBE V(*) I(*) W(*) D(*) NOISE(*) 
.INC ".\quiz1-SCHEMATIC1.net" 



**** INCLUDING quiz1-SCHEMATIC1.net ****
* source QUIZ1
R_R1         N00124 N00154  1  
R_R2         0 N00154  2  
V_V1         N00124 0 10

**** RESUMING quiz1-SCHEMATIC1-sasd.sim.cir ****
.END

**** 01/04/21 12:06:53 ************** PSpice Lite (Mar 2000) *****************

 ** Profile: "SCHEMATIC1-sasd"  [ F:\NUST\Semester 1\Linear Circuit Analysis\Labs\PSpice\quiz1-SCHEMATIC1-sasd.sim ] 


 ****     SMALL SIGNAL BIAS SOLUTION       TEMPERATURE =   27.000 DEG C


******************************************************************************



 NODE   VOLTAGE     NODE   VOLTAGE     NODE   VOLTAGE     NODE   VOLTAGE


(N00124)   10.0000 (N00154)    6.6667 




    VOLTAGE SOURCE CURRENTS
    NAME         CURRENT

    V_V1        -3.333E+00

    TOTAL POWER DISSIPATION   3.33E+01  WATTS



          JOB CONCLUDED

          TOTAL JOB TIME             .02
