
**** 11/16/20 18:33:08 ************** PSpice Lite (Mar 2000) *****************

 ** Profile: "SCHEMATIC1-A"  [ F:\NUST\Semester 1\Linear Circuit Analysis\Labs\PSpice\wer-SCHEMATIC1-A.sim ] 


 ****     CIRCUIT DESCRIPTION


******************************************************************************




** Creating circuit file "wer-SCHEMATIC1-A.sim.cir" 
** WARNING: THIS AUTOMATICALLY GENERATED FILE MAY BE OVERWRITTEN BY SUBSEQUENT SIMULATIONS

*Libraries: 
* Local Libraries :
* From [PSPICE NETLIST] section of C:\Program Files\OrcadLite\PSpice\PSpice.ini file:
.lib "nom.lib" 

*Analysis directives: 
.PROBE V(*) I(*) W(*) D(*) NOISE(*) 
.INC ".\wer-SCHEMATIC1.net" 



**** INCLUDING wer-SCHEMATIC1.net ****
* source WER
R_R1         0 N00135  40  
R_R2         N00135 N00197  10  
R_R3         N00197 N00266  20  
V_V1         N00266 0 30
I_I1         0 N00135 DC 6A  
X_F1    N00135 N00197 0 N00197 SCHEMATIC1_F1 

.subckt SCHEMATIC1_F1 1 2 3 4  
F_F1         3 4 VF_F1 1
VF_F1         1 2 0V
.ends SCHEMATIC1_F1

**** RESUMING wer-SCHEMATIC1-A.sim.cir ****
.END

**** 11/16/20 18:33:08 ************** PSpice Lite (Mar 2000) *****************

 ** Profile: "SCHEMATIC1-A"  [ F:\NUST\Semester 1\Linear Circuit Analysis\Labs\PSpice\wer-SCHEMATIC1-A.sim ] 


 ****     SMALL SIGNAL BIAS SOLUTION       TEMPERATURE =   27.000 DEG C


******************************************************************************



 NODE   VOLTAGE     NODE   VOLTAGE     NODE   VOLTAGE     NODE   VOLTAGE


(N00135)  135.0000 (N00197)  135.0000 (N00266)   30.0000 




    VOLTAGE SOURCE CURRENTS
    NAME         CURRENT

    V_V1         5.250E+00
    X_F1.VF_F1   2.625E+00

    TOTAL POWER DISSIPATION  -1.58E+02  WATTS



          JOB CONCLUDED

          TOTAL JOB TIME             .02
