
**** 12/07/20 15:34:25 ************** PSpice Lite (Mar 2000) *****************

 ** Profile: "SCHEMATIC1-fdg"  [ F:\NUST\Semester 1\Linear Circuit Analysis\Labs\PSpice\yui-SCHEMATIC1-fdg.sim ] 


 ****     CIRCUIT DESCRIPTION


******************************************************************************




** Creating circuit file "yui-SCHEMATIC1-fdg.sim.cir" 
** WARNING: THIS AUTOMATICALLY GENERATED FILE MAY BE OVERWRITTEN BY SUBSEQUENT SIMULATIONS

*Libraries: 
* Local Libraries :
* From [PSPICE NETLIST] section of C:\Program Files\OrcadLite\PSpice\PSpice.ini file:
.lib "nom.lib" 

*Analysis directives: 
.PROBE V(*) I(*) W(*) D(*) NOISE(*) 
.INC ".\yui-SCHEMATIC1.net" 



**** INCLUDING yui-SCHEMATIC1.net ****
* source YUI
R_R1         N00182 N00212  2.2k  
R_R2         N00270 N00212  1k  
R_R3         0 N00270  1k  
R_R4         0 N00212  1k  
V_V1         N00182 0 15

**** RESUMING yui-SCHEMATIC1-fdg.sim.cir ****
.END

**** 12/07/20 15:34:25 ************** PSpice Lite (Mar 2000) *****************

 ** Profile: "SCHEMATIC1-fdg"  [ F:\NUST\Semester 1\Linear Circuit Analysis\Labs\PSpice\yui-SCHEMATIC1-fdg.sim ] 


 ****     SMALL SIGNAL BIAS SOLUTION       TEMPERATURE =   27.000 DEG C


******************************************************************************



 NODE   VOLTAGE     NODE   VOLTAGE     NODE   VOLTAGE     NODE   VOLTAGE


(N00182)   15.0000 (N00212)    3.4884 (N00270)    1.7442 




    VOLTAGE SOURCE CURRENTS
    NAME         CURRENT

    V_V1        -5.233E-03

    TOTAL POWER DISSIPATION   7.85E-02  WATTS



          JOB CONCLUDED

          TOTAL JOB TIME            0.00
